
**** 04/05/18 18:28:27 ******* PSpice Lite (March 2016) ******* ID# 10813 ****

 ** Profile: "SCHEMATIC1-lab3sim"  [ C:\Users\Jonathan\Documents\School\ECE2280\Lab5-PSpiceFiles\SCHEMATIC1\lab3sim.sim ] 


 ****     CIRCUIT DESCRIPTION


******************************************************************************




** Creating circuit file "lab3sim.cir" 
** WARNING: THIS AUTOMATICALLY GENERATED FILE MAY BE OVERWRITTEN BY SUBSEQUENT SIMULATIONS

*Libraries: 
* Profile Libraries :
* Local Libraries :
* From [PSPICE NETLIST] section of C:\Users\Jonathan\AppData\Roaming\SPB_Data\cdssetup\OrCAD_PSpice\17.2.0\PSpice.ini file:
.lib "nomd.lib" 

*Analysis directives: 
.TRAN  0 2ms 0 
.OPTIONS ADVCONV
.PROBE64 V(alias(*)) I(alias(*)) W(alias(*)) D(alias(*)) NOISE(alias(*)) 
.INC "..\SCHEMATIC1.net" 



**** INCLUDING SCHEMATIC1.net ****
* source LAB5
R_R1         N14635 N14531  100k TC=0,0 
R_R3         N14595 N14531  5k TC=0,0 
C_C2         N14595 N14623  1u  TC=0,0 
V_V1         N14697 0  AC 1
+SIN 0 50m 1k 0 0 0
R_R2         0 N14635  50k TC=0,0 
R_R5         0 N14623  50k TC=0,0 
Q_Q1         N14595 N14635 N14717 Q2N3904
C_C1         N14697 N14635  1u  TC=0,0 
V_V2         N14531 0 15
R_R4         0 N14717  3k TC=0,0 

**** RESUMING lab3sim.cir ****
.END

**** 04/05/18 18:28:27 ******* PSpice Lite (March 2016) ******* ID# 10813 ****

 ** Profile: "SCHEMATIC1-lab3sim"  [ C:\Users\Jonathan\Documents\School\ECE2280\Lab5-PSpiceFiles\SCHEMATIC1\lab3sim.sim ] 


 ****     BJT MODEL PARAMETERS


******************************************************************************




               Q2N3904         
               NPN             
       LEVEL    1            
          IS    6.734000E-15 
          BF  416.4          
          NF    1            
         VAF   74.03         
         IKF     .06678      
         ISE    6.734000E-15 
          NE    1.259        
          BR     .7371       
          NR    1            
         ISS    0            
          RB   10            
          RE    0            
          RC    1            
         CJE    4.493000E-12 
         VJE     .75         
         MJE     .2593       
         CJC    3.638000E-12 
         VJC     .75         
         MJC     .3085       
        XCJC    1            
         CJS    0            
         VJS     .75         
          TF  301.200000E-12 
         XTF    2            
         VTF    4            
         ITF     .4          
          TR  239.500000E-09 
         XTB    1.5          
          KF    0            
          AF    1            
          CN    2.42         
           D     .87         


**** 04/05/18 18:28:27 ******* PSpice Lite (March 2016) ******* ID# 10813 ****

 ** Profile: "SCHEMATIC1-lab3sim"  [ C:\Users\Jonathan\Documents\School\ECE2280\Lab5-PSpiceFiles\SCHEMATIC1\lab3sim.sim ] 


 ****     INITIAL TRANSIENT SOLUTION       TEMPERATURE =   27.000 DEG C


******************************************************************************



 NODE   VOLTAGE     NODE   VOLTAGE     NODE   VOLTAGE     NODE   VOLTAGE


(N14531)   15.0000 (N14595)    8.3481 (N14623)    0.0000 (N14635)    4.6910     

(N14697)    0.0000 (N14717)    4.0190 




    VOLTAGE SOURCE CURRENTS
    NAME         CURRENT

    V_V1         0.000E+00
    V_V2        -1.433E-03

    TOTAL POWER DISSIPATION   2.15E-02  WATTS



          JOB CONCLUDED

**** 04/05/18 18:28:27 ******* PSpice Lite (March 2016) ******* ID# 10813 ****

 ** Profile: "SCHEMATIC1-lab3sim"  [ C:\Users\Jonathan\Documents\School\ECE2280\Lab5-PSpiceFiles\SCHEMATIC1\lab3sim.sim ] 


 ****     JOB STATISTICS SUMMARY


******************************************************************************



  Total job time (using Solver 1)   =         .03
